!CSV A.01.01
!Keysight Technologies,P9374A,MY57211795,A.19.30.04
!Date: Tuesday, October 14, 2025 14:31:31
!Source: Standard

BEGIN CH1_DATA
Freq(Hz),S11(DB),S11(DEG),S11(DB),S11(DEG)
300000,-37.439266,3.6033969,-37.439266,3.6033969
30298500,-37.745316,-5.0682778,-37.745316,-5.0682778
60297000,-38.231609,-8.1954079,-38.231609,-8.1954079
90295500,-38.786465,-11.178848,-38.786465,-11.178848
120294000,-39.342339,-13.962296,-39.342339,-13.962296
150292500,-39.987835,-17.124113,-39.987835,-17.124113
180291000,-40.509048,-20.514591,-40.509048,-20.514591
210289500,-41.023167,-24.1278,-41.023167,-24.1278
240288000,-41.474312,-28.501518,-41.474312,-28.501518
270286500,-41.830803,-33.669773,-41.830803,-33.669773
300285000,-42.079891,-39.771717,-42.079891,-39.771717
330283500,-42.140797,-46.959793,-42.140797,-46.959793
360282000,-41.904873,-54.750774,-41.904873,-54.750774
390280500,-41.314495,-61.870274,-41.314495,-61.870274
420279000,-40.618374,-67.681396,-40.618374,-67.681396
450277500,-39.659138,-72.605011,-39.659138,-72.605011
480276000,-38.704128,-75.403412,-38.704128,-75.403412
510274500,-37.713993,-77.313873,-37.713993,-77.313873
540273000,-36.829128,-78.205688,-36.829128,-78.205688
570271500,-36.014572,-78.209747,-36.014572,-78.209747
600270000,-35.280727,-77.957901,-35.280727,-77.957901
630268500,-34.578548,-77.431023,-34.578548,-77.431023
660267000,-33.929504,-76.802551,-33.929504,-76.802551
690265500,-33.348156,-76.022209,-33.348156,-76.022209
720264000,-32.764084,-75.183876,-32.764084,-75.183876
750262500,-32.205032,-74.109818,-32.205032,-74.109818
780261000,-31.610073,-72.753922,-31.610073,-72.753922
810259500,-31.097523,-71.157242,-31.097523,-71.157242
840258000,-30.584215,-69.274635,-30.584215,-69.274635
870256500,-30.128698,-67.210037,-30.128698,-67.210037
900255000,-29.716417,-64.828926,-29.716417,-64.828926
930253500,-29.346264,-62.430424,-29.346264,-62.430424
960252000,-28.997469,-60.1255,-28.997469,-60.1255
990250500,-28.709927,-57.684391,-28.709927,-57.684391
1020249000,-28.480925,-55.23521,-28.480925,-55.23521
1050247500,-28.242373,-52.848881,-28.242373,-52.848881
1080246000,-28.023302,-50.769974,-28.023302,-50.769974
1110244500,-27.819868,-48.588272,-27.819868,-48.588272
1140243000,-27.615122,-46.437607,-27.615122,-46.437607
1170241500,-27.408592,-44.037884,-27.408592,-44.037884
1200240000,-27.220196,-41.644127,-27.220196,-41.644127
1230238500,-27.055487,-39.155193,-27.055487,-39.155193
1260237000,-26.926811,-36.574543,-26.926811,-36.574543
1290235500,-26.81682,-33.867474,-26.81682,-33.867474
1320234000,-26.754456,-31.190975,-26.754456,-31.190975
1350232500,-26.735125,-28.662605,-26.735125,-28.662605
1380231000,-26.745159,-26.058096,-26.745159,-26.058096
1410229500,-26.783457,-23.775198,-26.783457,-23.775198
1440228000,-26.848577,-21.571548,-26.848577,-21.571548
1470226500,-26.919851,-19.682629,-26.919851,-19.682629
1500225000,-26.992592,-17.786432,-26.992592,-17.786432
1530223500,-27.065754,-15.883948,-27.065754,-15.883948
1560222000,-27.137276,-14.325784,-27.137276,-14.325784
1590220500,-27.243486,-12.562658,-27.243486,-12.562658
1620219000,-27.359287,-10.97961,-27.359287,-10.97961
1650217500,-27.494768,-9.4978485,-27.494768,-9.4978485
1680216000,-27.683268,-8.0095711,-27.683268,-8.0095711
1710214500,-27.903196,-6.9519358,-27.903196,-6.9519358
1740213000,-28.137815,-6.0974431,-28.137815,-6.0974431
1770211500,-28.37645,-5.8519554,-28.37645,-5.8519554
1800210000,-28.617224,-5.9464302,-28.617224,-5.9464302
1830208500,-28.812775,-6.539115,-28.812775,-6.539115
1860207000,-28.959665,-7.5691004,-28.959665,-7.5691004
1890205500,-29.041504,-8.7475758,-29.041504,-8.7475758
1920204000,-29.047377,-9.9054775,-29.047377,-9.9054775
1950202500,-28.984156,-11.192996,-28.984156,-11.192996
1980201000,-28.873142,-12.079123,-28.873142,-12.079123
2010199500,-28.740562,-12.870764,-28.740562,-12.870764
2040198000,-28.606743,-13.461952,-28.606743,-13.461952
2070196500,-28.403006,-14.120673,-28.403006,-14.120673
2100195000,-28.225601,-14.710612,-28.225601,-14.710612
2130193500,-28.000216,-15.202285,-28.000216,-15.202285
2160192000,-27.745323,-15.52856,-27.745323,-15.52856
2190190500,-27.436377,-15.782248,-27.436377,-15.782248
2220189000,-27.099216,-15.640386,-27.099216,-15.640386
2250187500,-26.733154,-15.231146,-26.733154,-15.231146
2280186000,-26.370384,-14.432384,-26.370384,-14.432384
2310184500,-26.017792,-13.091706,-26.017792,-13.091706
2340183000,-25.69091,-11.672566,-25.69091,-11.672566
2370181500,-25.35601,-9.9534483,-25.35601,-9.9534483
2400180000,-25.083714,-8.03057,-25.083714,-8.03057
2430178500,-24.813444,-5.9855695,-24.813444,-5.9855695
2460177000,-24.56852,-3.9822915,-24.56852,-3.9822915
2490175500,-24.341406,-2.0012517,-24.341406,-2.0012517
2520174000,-24.09362,0.17191865,-24.09362,0.17191865
2550172500,-23.876734,2.3835709,-23.876734,2.3835709
2580171000,-23.646093,4.7412734,-23.646093,4.7412734
2610169500,-23.40523,7.1426969,-23.40523,7.1426969
2640168000,-23.165081,9.895401,-23.165081,9.895401
2670166500,-22.950972,12.739664,-22.950972,12.739664
2700165000,-22.744459,15.820849,-22.744459,15.820849
2730163500,-22.563444,19.007469,-22.563444,19.007469
2760162000,-22.395319,22.364758,-22.395319,22.364758
2790160500,-22.265011,25.728184,-22.265011,25.728184
2820159000,-22.152943,29.28195,-22.152943,29.28195
2850157500,-22.066212,32.779457,-22.066212,32.779457
2880156000,-21.98431,36.212311,-21.98431,36.212311
2910154500,-21.917887,39.714066,-21.917887,39.714066
2940153000,-21.861267,43.242107,-21.861267,43.242107
2970151500,-21.786661,46.838909,-21.786661,46.838909
3000150000,-21.735723,50.603092,-21.735723,50.603092
3030148500,-21.686201,54.488934,-21.686201,54.488934
3060147000,-21.667343,58.628143,-21.667343,58.628143
3090145500,-21.657671,62.723221,-21.657671,62.723221
3120144000,-21.682749,67.085197,-21.682749,67.085197
3150142500,-21.733019,71.52243,-21.733019,71.52243
3180141000,-21.814112,75.902016,-21.814112,75.902016
3210139500,-21.926195,80.444221,-21.926195,80.444221
3240138000,-22.070755,84.844688,-22.070755,84.844688
3270136500,-22.220198,89.32309,-22.220198,89.32309
3300135000,-22.388124,93.734879,-22.388124,93.734879
3330133500,-22.54431,98.237518,-22.54431,98.237518
3360132000,-22.731564,102.77261,-22.731564,102.77261
3390130500,-22.918541,107.4389,-22.918541,107.4389
3420129000,-23.118019,112.32572,-23.118019,112.32572
3450127500,-23.307493,117.39408,-23.307493,117.39408
3480126000,-23.526609,122.63818,-23.526609,122.63818
3510124500,-23.766329,128.08192,-23.766329,128.08192
3540123000,-24.031895,133.67255,-24.031895,133.67255
3570121500,-24.346563,139.49818,-24.346563,139.49818
3600120000,-24.679363,145.32939,-24.679363,145.32939
3630118500,-25.026852,151.29269,-25.026852,151.29269
3660117000,-25.387516,157.3279,-25.387516,157.3279
3690115500,-25.781517,163.48137,-25.781517,163.48137
3720114000,-26.15233,169.65964,-26.15233,169.65964
3750112500,-26.506433,175.92644,-26.506433,175.92644
3780111000,-26.875353,-177.63112,-26.875353,-177.63112
3810109500,-27.215572,-170.79408,-27.215572,-170.79408
3840108000,-27.517937,-163.7196,-27.517937,-163.7196
3870106500,-27.834776,-156.28989,-27.834776,-156.28989
3900105000,-28.142012,-148.54878,-28.142012,-148.54878
3930103500,-28.428217,-140.20563,-28.428217,-140.20563
3960102000,-28.703585,-131.65689,-28.703585,-131.65689
3990100500,-29.029751,-122.66916,-29.029751,-122.66916
4020099000,-29.338846,-113.36362,-29.338846,-113.36362
4050097500,-29.651855,-103.97635,-29.651855,-103.97635
4080096000,-29.96627,-94.363876,-29.96627,-94.363876
4110094500,-30.231369,-84.578072,-30.231369,-84.578072
4140093000,-30.498747,-74.751495,-30.498747,-74.751495
4170091500,-30.680632,-64.637283,-30.680632,-64.637283
4200090000,-30.799982,-54.561283,-30.799982,-54.561283
4230088500,-30.827295,-44.097263,-30.827295,-44.097263
4260087000,-30.666819,-33.45319,-30.666819,-33.45319
4290085500,-30.364563,-22.180079,-30.364563,-22.180079
4320084000,-29.950775,-10.789541,-29.950775,-10.789541
4350082500,-29.362579,0.81061202,-29.362579,0.81061202
4380081000,-28.490805,12.049358,-28.490805,12.049358
4410079500,-27.411806,22.368393,-27.411806,22.368393
4440078000,-26.12981,29.679123,-26.12981,29.679123
4470076500,-24.985081,32.944424,-24.985081,32.944424
4500075000,-24.473587,32.64447,-24.473587,32.64447
4530073500,-24.889683,33.112663,-24.889683,33.112663
4560072000,-25.787529,38.154678,-25.787529,38.154678
4590070500,-26.606627,46.888336,-26.606627,46.888336
4620069000,-27.139502,57.485073,-27.139502,57.485073
4650067500,-27.345406,69.050301,-27.345406,69.050301
4680066000,-27.278103,80.119438,-27.278103,80.119438
4710064500,-27.002899,90.720901,-27.002899,90.720901
4740063000,-26.597057,100.70591,-26.597057,100.70591
4770061500,-26.131207,110.20087,-26.131207,110.20087
4800060000,-25.575663,119.15597,-25.575663,119.15597
4830058500,-25.019405,127.83476,-25.019405,127.83476
4860057000,-24.428213,135.88365,-24.428213,135.88365
4890055500,-23.879162,143.61151,-23.879162,143.61151
4920054000,-23.349133,150.98204,-23.349133,150.98204
4950052500,-22.835417,157.95442,-22.835417,157.95442
4980051000,-22.345715,164.51077,-22.345715,164.51077
5010049500,-21.887106,170.72202,-21.887106,170.72202
5040048000,-21.441477,176.65102,-21.441477,176.65102
5070046500,-21.012285,-177.69792,-21.012285,-177.69792
5100045000,-20.586531,-172.42006,-20.586531,-172.42006
5130043500,-20.16855,-167.30823,-20.16855,-167.30823
5160042000,-19.759081,-162.33615,-19.759081,-162.33615
5190040500,-19.355,-157.4124,-19.355,-157.4124
5220039000,-18.958439,-152.56799,-18.958439,-152.56799
5250037500,-18.572859,-147.76596,-18.572859,-147.76596
5280036000,-18.218451,-142.97417,-18.218451,-142.97417
5310034500,-17.880875,-138.21454,-17.880875,-138.21454
5340033000,-17.564037,-133.5621,-17.564037,-133.5621
5370031500,-17.2738,-128.90544,-17.2738,-128.90544
5400030000,-17.0026,-124.38243,-17.0026,-124.38243
5430028500,-16.751173,-119.92059,-16.751173,-119.92059
5460027000,-16.50573,-115.52369,-16.50573,-115.52369
5490025500,-16.279543,-111.24553,-16.279543,-111.24553
5520024000,-16.058016,-106.99495,-16.058016,-106.99495
5550022500,-15.844789,-102.77474,-15.844789,-102.77474
5580021000,-15.644142,-98.576256,-15.644142,-98.576256
5610019500,-15.443675,-94.321342,-15.443675,-94.321342
5640018000,-15.259481,-90.076874,-15.259481,-90.076874
5670016500,-15.089153,-85.849678,-15.089153,-85.849678
5700015000,-14.934009,-81.633392,-14.934009,-81.633392
5730013500,-14.800901,-77.408661,-14.800901,-77.408661
5760012000,-14.674582,-73.23214,-14.674582,-73.23214
5790010500,-14.568615,-69.115318,-14.568615,-69.115318
5820009000,-14.466857,-65.028816,-14.466857,-65.028816
5850007500,-14.388113,-60.964241,-14.388113,-60.964241
5880006000,-14.311353,-57.018723,-14.311353,-57.018723
5910004500,-14.248459,-53.059265,-14.248459,-53.059265
5940003000,-14.18392,-49.102749,-14.18392,-49.102749
5970001500,-14.134297,-45.185284,-14.134297,-45.185284
6000000000,-14.102952,-41.239685,-14.102952,-41.239685
END

