!CSV A.01.01
!Keysight Technologies,P9374A,MY57211795,A.19.30.04
!Date: Tuesday, October 14, 2025 14:02:15
!Source: Standard

BEGIN CH1_DATA
Freq(Hz),S11(DB),S11(DEG),S21(DB),S21(DEG),S12(DB),S12(DEG),S22(DB),S22(DEG)
300000,-57.299709,-97.337173,0.010364273,0.017912343,0.012377582,0.0336462,-52.426388,-149.01688
30298500,-42.103424,78.345604,0.0015916954,-5.3014083,0.0021687027,-5.3130746,-43.047161,92.3339
60297000,-36.241257,75.578697,-0.0030841136,-10.521375,-0.0018595282,-10.532995,-37.243874,80.008194
90295500,-32.577305,70.112,-0.0076244115,-15.732149,-0.0057250885,-15.745892,-33.580818,71.955399
120294000,-30.008427,64.984444,-0.012048496,-20.931538,-0.010841102,-20.94857,-30.936317,64.949051
150292500,-28.006207,58.985249,-0.017634589,-26.133394,-0.014771812,-26.144123,-28.871397,58.516029
180291000,-26.494862,53.097607,-0.022624664,-31.321814,-0.02017598,-31.330688,-27.200666,52.985905
210289500,-25.300291,47.459927,-0.027268803,-36.509422,-0.025147369,-36.512848,-25.892735,47.27269
240288000,-24.390636,42.348675,-0.031298891,-41.697834,-0.030159643,-41.712132,-24.823277,42.205452
270286500,-23.684038,37.182663,-0.036460802,-46.887016,-0.034136061,-46.899807,-23.979071,37.099491
300285000,-23.079906,32.855606,-0.039449196,-52.083038,-0.039102565,-52.102886,-23.335621,32.052288
330283500,-22.599848,28.711895,-0.044650096,-57.296806,-0.04239573,-57.307549,-22.745255,26.866043
360282000,-22.135418,24.92503,-0.049986854,-62.505959,-0.047533691,-62.520084,-22.245445,21.465828
390280500,-21.673386,21.082123,-0.054125108,-67.721123,-0.054134805,-67.737465,-21.800488,15.902246
420279000,-21.221029,17.519896,-0.058961295,-72.94413,-0.05675273,-72.958397,-21.337458,10.199562
450277500,-20.803955,13.787788,-0.063650779,-78.160118,-0.061522793,-78.181694,-20.910227,4.2663713
480276000,-20.446991,10.07656,-0.066689231,-83.374969,-0.065631852,-83.394943,-20.519024,-1.6571898
510274500,-20.185127,6.252243,-0.069505952,-88.582047,-0.067088276,-88.596191,-20.174292,-7.4680624
540273000,-20.038086,2.4443703,-0.070356958,-93.784355,-0.068157844,-93.805733,-19.908869,-13.12559
570271500,-20.049578,-1.3559282,-0.06632176,-98.984451,-0.067403227,-99.004501,-19.783098,-18.721451
600270000,-20.215219,-5.0007234,-0.064698741,-104.18761,-0.062654018,-104.205,-19.768343,-24.007166
630268500,-20.535435,-8.4972086,-0.059407659,-109.39321,-0.057834443,-109.41914,-19.898552,-29.13936
660267000,-21.014881,-11.783976,-0.055476736,-114.61337,-0.052545942,-114.63493,-20.169794,-34.40097
690265500,-21.615593,-14.752322,-0.048832219,-119.84407,-0.048341397,-119.87001,-20.549564,-39.652374
720264000,-22.299549,-17.532005,-0.04490013,-125.09364,-0.043440931,-125.11692,-20.992704,-45.270279
750262500,-23.061436,-19.868221,-0.042277578,-130.36801,-0.0386656,-130.38983,-21.475306,-51.409988
780261000,-23.818277,-21.742611,-0.039568573,-135.64978,-0.037588909,-135.67722,-21.957954,-58.375549
810259500,-24.50839,-23.243017,-0.040037245,-140.95686,-0.037377939,-140.98335,-22.399572,-65.829887
840258000,-25.145655,-24.650965,-0.039926734,-146.28323,-0.036621343,-146.31058,-22.772701,-73.920341
870256500,-25.753933,-25.426222,-0.039687436,-151.6188,-0.038194988,-151.64952,-23.168791,-82.578362
900255000,-26.375839,-26.106853,-0.040137567,-156.97765,-0.038494274,-157.00372,-23.568966,-91.411148
930253500,-27.027807,-25.723539,-0.039219327,-162.33824,-0.037546352,-162.36542,-24.078409,-100.5438
960252000,-27.758854,-24.431444,-0.036992837,-167.71878,-0.035675135,-167.74698,-24.739616,-109.89896
990250500,-28.596273,-21.692043,-0.035651386,-173.1064,-0.033341426,-173.12943,-25.669968,-119.73423
1020249000,-29.351067,-16.810211,-0.031442296,-178.49796,-0.030420054,-178.53595,-26.785704,-130.88345
1050247500,-30.014727,-10.544467,-0.02857249,176.09694,-0.026702534,176.06102,-28.098488,-144.04839
1080246000,-30.416111,-2.9886193,-0.025179133,170.67685,-0.023066785,170.64989,-29.48527,-159.75598
1110244500,-30.477724,3.9247901,-0.021397417,165.25905,-0.019945309,165.22549,-30.504259,-177.96738
1140243000,-30.282658,9.1944685,-0.019510526,159.82593,-0.017590923,159.786,-30.988153,161.85138
1170241500,-29.92004,12.727571,-0.018636929,154.37802,-0.016829712,154.33734,-30.765501,144.01915
1200240000,-29.52331,14.648343,-0.019126225,148.91156,-0.018404,148.87085,-30.234035,129.51553
1230238500,-29.091341,14.999265,-0.021122981,143.42256,-0.018841533,143.38795,-29.614346,117.47591
1260237000,-28.604124,14.541757,-0.02309203,137.92111,-0.022346767,137.8488,-29.033194,106.51639
1290235500,-28.047045,13.805304,-0.026529074,132.39351,-0.025189808,132.31575,-28.556141,96.02282
1320234000,-27.416775,12.741458,-0.03141205,126.82853,-0.030675787,126.76154,-28.104847,84.534737
1350232500,-26.768126,11.728016,-0.036184367,121.25394,-0.0341538,121.18383,-27.641254,72.228149
1380231000,-26.11237,10.618528,-0.041539732,115.65506,-0.038314335,115.57462,-27.077099,59.054382
1410229500,-25.553677,9.3584738,-0.044185374,110.04015,-0.042380046,109.95795,-26.374077,45.512394
1440228000,-25.071524,7.9521236,-0.048763111,104.41785,-0.04584574,104.33356,-25.64996,33.243576
1470226500,-24.718239,6.0786819,-0.050722472,98.770912,-0.047762692,98.702736,-24.882328,22.14835
1500225000,-24.479364,3.6512566,-0.05165153,93.122383,-0.049451653,93.047142,-24.213997,12.683478
1530223500,-24.365528,0.39313459,-0.052711539,87.460678,-0.051084172,87.384727,-23.655464,4.4832311
1560222000,-24.395956,-3.3424177,-0.053473298,81.769379,-0.050847922,81.695686,-23.254105,-2.465817
1590220500,-24.490017,-8.2754068,-0.053451024,76.054451,-0.050863899,75.982933,-22.94523,-8.8768578
1620219000,-24.653629,-13.947067,-0.05335537,70.323669,-0.050766207,70.241524,-22.695801,-14.808156
1650217500,-24.881626,-20.810732,-0.053681646,64.549461,-0.052532583,64.473541,-22.489407,-20.928267
1680216000,-25.10824,-28.434855,-0.055872656,58.748322,-0.053388916,58.669708,-22.290344,-27.151062
1710214500,-25.336094,-36.92802,-0.058882315,52.920033,-0.055815235,52.843994,-22.095249,-33.806728
1740213000,-25.542303,-45.970669,-0.06090505,47.047539,-0.058578737,46.972797,-21.906994,-40.680851
1770211500,-25.794617,-55.625294,-0.064181432,41.153355,-0.060424935,41.068253,-21.773682,-47.85392
1800210000,-26.126072,-65.277069,-0.06591516,35.217026,-0.062378537,35.133064,-21.733345,-54.851521
1830208500,-26.61915,-75.420982,-0.066615626,29.234169,-0.064853765,29.154642,-21.804527,-61.44062
1860207000,-27.25226,-86.419579,-0.066642962,23.225912,-0.065450519,23.144087,-22.058491,-67.399445
1890205500,-28.076155,-98.590454,-0.067487359,17.169521,-0.064221889,17.090792,-22.488548,-72.460396
1920204000,-29.017267,-112.45523,-0.066580407,11.072409,-0.065922782,10.988391,-23.13167,-76.494553
1950202500,-29.90387,-128.63518,-0.065782964,4.9360375,-0.065133348,4.8501577,-23.992723,-79.488358
1980201000,-30.568584,-147.18442,-0.066262618,-1.2508345,-0.064000949,-1.3389845,-25.03993,-81.065102
2010199500,-30.732891,-166.99974,-0.065279976,-7.4829121,-0.063735887,-7.5704384,-26.306694,-80.702751
2040198000,-30.335266,174.09471,-0.068323247,-13.761859,-0.065175392,-13.849113,-27.685921,-78.096367
2070196500,-29.625469,157.64153,-0.069230832,-20.102911,-0.066829599,-20.183081,-29.09144,-72.682693
2100195000,-28.765799,142.99957,-0.070885271,-26.496475,-0.068581223,-26.576572,-30.243294,-64.040413
2130193500,-27.884342,130.57066,-0.073443547,-32.939011,-0.071811549,-33.029602,-30.864985,-53.007046
2160192000,-27.10811,119.1227,-0.075992264,-39.462025,-0.074088089,-39.544003,-30.668606,-42.018406
2190190500,-26.378799,108.42285,-0.080775611,-46.038074,-0.077682227,-46.13102,-29.845156,-33.6147
2220189000,-25.737791,98.359093,-0.085836694,-52.694645,-0.082884558,-52.782192,-28.678486,-29.381729
2250187500,-25.213451,88.999626,-0.091294385,-59.422688,-0.089432642,-59.51881,-27.423628,-28.281424
2280186000,-24.815102,80.292686,-0.097687319,-66.222443,-0.096027404,-66.312347,-26.279415,-30.010981
2310184500,-24.590315,72.422218,-0.10545669,-73.103348,-0.10316206,-73.187851,-25.318487,-33.782856
2340183000,-24.578333,65.579109,-0.11169734,-80.074196,-0.10942357,-80.155861,-24.62155,-39.075439
2370181500,-24.796667,60.220051,-0.11846515,-87.120628,-0.11623596,-87.21566,-24.230408,-45.717354
2400180000,-25.359043,56.254868,-0.12301191,-94.290443,-0.12157122,-94.389603,-24.214817,-52.818504
2430178500,-26.378372,55.222656,-0.12826405,-101.57841,-0.12589286,-101.67275,-24.700901,-60.678719
2460177000,-27.909609,58.979202,-0.13210054,-109.00079,-0.1296435,-109.09252,-25.874243,-69.222496
2490175500,-29.643381,72.799248,-0.13421987,-116.57625,-0.13425085,-116.6687,-28.183607,-78.57016
2520174000,-29.943289,99.795486,-0.14111087,-124.32399,-0.13967112,-124.42426,-33.017578,-91.898811
2550172500,-27.287029,124.71819,-0.15200485,-132.27055,-0.14898035,-132.3671,-46.736656,-175.73828
2580171000,-23.628452,136.04581,-0.16640747,-140.44231,-0.16417235,-140.53378,-31.286106,93.574547
2610169500,-20.32159,138.83119,-0.1918785,-148.84183,-0.19067471,-148.94647,-24.451881,79.415794
2640168000,-17.479588,137.28404,-0.23489201,-157.53842,-0.23203862,-157.62486,-20.140295,68.741905
2670166500,-15.005715,133.3972,-0.29916629,-166.50182,-0.29720524,-166.59923,-16.893671,58.529434
2700165000,-12.837998,128.20351,-0.39655671,-175.77873,-0.39413705,-175.89108,-14.240381,48.080151
2730163500,-10.917442,121.89639,-0.53775728,174.61023,-0.53683424,174.50728,-12.016813,37.20903
2760162000,-9.2076006,114.86961,-0.73683482,164.6902,-0.73430479,164.59811,-10.093209,25.887718
2790160500,-7.6860785,107.22501,-1.0037736,154.50772,-1.0012804,154.40132,-8.4303398,14.129841
2820159000,-6.3433399,99.19577,-1.3526018,144.1344,-1.3519826,144.03458,-6.9731779,2.0520236
2850157500,-5.1737981,90.908661,-1.7922707,133.65347,-1.790128,133.55859,-5.7146559,-10.168796
2880156000,-4.1712027,82.519234,-2.3245585,123.21181,-2.320843,123.1165,-4.6380839,-22.31106
2910154500,-3.33358,74.147041,-2.9511724,112.90769,-2.9481387,112.80096,-3.7312269,-34.227989
2940153000,-2.6374414,65.923187,-3.6585016,102.84177,-3.6558669,102.74757,-2.980175,-45.780796
2970151500,-2.0726545,57.947277,-4.4384022,93.127327,-4.4365687,93.025887,-2.3673697,-56.877907
3000150000,-1.6213964,50.333015,-5.2780266,83.826721,-5.2767577,83.718979,-1.8789809,-67.478378
3030148500,-1.2675475,43.044392,-6.1632309,74.944778,-6.1638637,74.849205,-1.4923283,-77.567322
3060147000,-0.99136817,36.101593,-7.0831347,66.482796,-7.081605,66.381424,-1.190267,-87.175537
3090145500,-0.78184748,29.508528,-8.0277033,58.459869,-8.0276365,58.365833,-0.95670867,-96.318695
3120144000,-0.62152112,23.247873,-8.9906559,50.850864,-8.9884872,50.729996,-0.77301967,-105.06695
3150142500,-0.50084627,17.275082,-9.9618816,43.594692,-9.9587507,43.479595,-0.62712544,-113.40432
3180141000,-0.40663511,11.623035,-10.935273,36.701702,-10.935095,36.590862,-0.50893849,-121.36183
3210139500,-0.33845919,6.2561316,-11.910023,30.191397,-11.907421,30.066055,-0.41142595,-128.9429
3240138000,-0.28559026,1.168926,-12.877881,23.947969,-12.876561,23.84638,-0.32928956,-136.18546
3270136500,-0.24191903,-3.6814187,-13.8313,18.021889,-13.833138,17.925198,-0.25988379,-143.05309
3300135000,-0.20617747,-8.3066282,-14.769669,12.342882,-14.769739,12.218328,-0.20240737,-149.61102
3330133500,-0.17848839,-12.755261,-15.688251,6.9147873,-15.693057,6.7871251,-0.16043289,-155.88431
3360132000,-0.15902644,-17.035934,-16.596123,1.6325698,-16.593237,1.5265898,-0.13000676,-161.90688
3390130500,-0.14305297,-21.205374,-17.483913,-3.4827895,-17.483191,-3.5693183,-0.11343607,-167.72429
3420129000,-0.13397159,-25.260754,-18.356512,-8.4024591,-18.355894,-8.5167198,-0.10921359,-173.39934
3450127500,-0.12782016,-29.251966,-19.219049,-13.233464,-19.213787,-13.342729,-0.11412803,-178.93434
3480126000,-0.12394938,-33.139683,-20.06798,-17.876507,-20.075804,-18.033905,-0.12286492,175.6275
3510124500,-0.12508419,-36.948204,-20.922853,-22.402908,-20.921406,-22.521025,-0.13552108,170.26932
3540123000,-0.12627713,-40.678497,-21.773157,-26.834106,-21.766071,-26.954809,-0.14729804,165.0144
3570121500,-0.1275056,-44.304424,-22.601908,-31.112146,-22.59137,-31.233633,-0.15482087,159.87181
3600120000,-0.12763222,-47.821327,-23.425459,-35.223404,-23.422211,-35.38213,-0.16010951,154.86153
3630118500,-0.12702419,-51.250916,-24.256329,-39.315228,-24.250885,-39.377594,-0.16001631,149.99011
3660117000,-0.12712468,-54.588947,-25.06225,-43.269566,-25.055208,-43.337254,-0.1600257,145.23993
3690115500,-0.12270888,-57.855038,-25.857384,-47.11718,-25.847387,-47.227818,-0.16315386,140.64784
3720114000,-0.12080461,-61.049973,-26.63825,-51.005974,-26.633179,-51.124557,-0.16827452,136.14589
3750112500,-0.1181752,-64.202118,-27.421637,-54.81139,-27.414791,-54.930271,-0.18031991,131.71704
3780111000,-0.11399914,-67.323082,-28.183926,-58.554958,-28.186827,-58.656326,-0.19715802,127.31863
3810109500,-0.11197358,-70.410606,-28.939142,-62.392891,-28.943119,-62.50457,-0.21773849,122.95251
3840108000,-0.11183599,-73.480469,-29.681456,-66.095512,-29.68783,-66.256577,-0.23942015,118.58371
3870106500,-0.10850118,-76.496964,-30.411236,-69.732567,-30.412741,-69.766159,-0.25496069,114.23962
3900105000,-0.10796721,-79.474014,-31.12989,-73.283752,-31.143066,-73.377388,-0.26213464,109.91861
3930103500,-0.10444207,-82.386894,-31.872017,-76.622978,-31.856199,-76.811562,-0.25850442,105.67226
3960102000,-0.10320394,-85.213264,-32.57008,-80.004494,-32.580425,-80.07106,-0.24709481,101.5454
3990100500,-0.095794521,-87.967651,-33.275715,-83.235954,-33.285259,-83.420448,-0.22133669,97.524452
4020099000,-0.091065988,-90.63147,-33.988869,-86.285683,-33.99115,-86.579819,-0.19319575,93.663483
4050097500,-0.081558131,-93.204636,-34.682858,-89.406837,-34.688763,-89.530418,-0.16460842,89.962173
4080096000,-0.071032621,-95.705986,-35.382168,-92.325378,-35.362282,-92.401779,-0.14005554,86.42205
4110094500,-0.060926575,-98.152252,-36.045841,-95.119255,-36.061302,-95.299377,-0.12961629,82.935181
4140093000,-0.050999571,-100.55841,-36.735565,-98.125092,-36.740799,-98.063446,-0.12944907,79.533676
4170091500,-0.040109091,-102.93754,-37.413986,-100.89166,-37.409863,-100.93692,-0.13773829,76.175613
4200090000,-0.028828377,-105.29657,-38.044262,-103.70528,-38.052013,-103.71351,-0.16203028,72.745079
4230088500,-0.020348927,-107.64645,-38.738884,-106.99597,-38.750973,-106.63443,-0.19310644,69.274048
4260087000,-0.010995252,-110.00343,-39.407463,-109.37046,-39.373665,-109.85118,-0.21952674,65.755936
4290085500,-0.00055684289,-112.32034,-40.019135,-112.66899,-40.042839,-112.38654,-0.23824604,62.202507
4320084000,0.0099262707,-114.59887,-40.621113,-115.34664,-40.642254,-115.71153,-0.24531901,58.650883
4350082500,0.019440275,-116.8192,-41.229168,-118.12109,-41.277916,-118.65316,-0.23951615,55.18961
4380081000,0.028965369,-118.99079,-41.94791,-121.12942,-41.916462,-120.86136,-0.21929775,51.824169
4410079500,0.041450016,-121.10633,-42.461891,-123.33025,-42.491058,-123.57871,-0.19007537,48.580307
4440078000,0.053979158,-123.14898,-43.126808,-125.93059,-43.081188,-126.15667,-0.1570815,45.493382
4470076500,0.067239009,-125.15241,-43.638321,-128.075,-43.696636,-128.54843,-0.12685893,42.544739
4500075000,0.079501428,-127.10657,-44.198059,-130.96713,-44.223667,-130.60721,-0.10718336,39.682678
4530073500,0.10295679,-129.0484,-44.801437,-133.25282,-44.839211,-133.09726,-0.098348714,36.87204
4560072000,0.12538794,-130.96571,-45.303535,-135.39981,-45.269661,-135.37056,-0.10864769,34.026772
4590070500,0.13587609,-132.93109,-45.869022,-138.25435,-45.944778,-137.86362,-0.13190173,31.13871
4620069000,0.15543672,-134.87717,-46.391193,-140.27217,-46.377529,-140.11313,-0.16520317,28.147741
4650067500,0.16276595,-136.86632,-46.971405,-142.79599,-46.970234,-142.73663,-0.20292623,25.072676
4680066000,0.17627797,-138.85564,-47.53503,-145.05081,-47.560928,-145.27225,-0.23814157,21.869942
4710064500,0.17469631,-140.91379,-48.076794,-147.76588,-48.075165,-147.7502,-0.26152948,18.575022
4740063000,0.17799519,-142.93106,-48.610863,-150.60751,-48.603584,-151.35393,-0.2752102,15.317251
4770061500,0.17945145,-144.93578,-49.103828,-152.5529,-49.128212,-152.54031,-0.26355946,12.035327
4800060000,0.1796869,-146.90305,-49.646816,-155.9364,-49.55098,-155.88295,-0.23592445,8.8714066
4830058500,0.17986573,-148.86459,-50.042191,-158.54878,-50.055218,-158.93921,-0.19903104,5.7629318
4860057000,0.1782034,-150.82474,-50.574047,-160.78275,-50.621189,-159.89569,-0.15331945,2.8027928
4890055500,0.18037434,-152.73589,-51.064796,-164.28197,-51.147079,-163.16821,-0.10470723,-0.077883884
4920054000,0.18534701,-154.59883,-51.676151,-165.58633,-51.604729,-165.46062,-0.065295741,-2.8925076
4950052500,0.18765073,-156.44258,-51.942795,-167.27142,-52.062412,-167.04683,-0.035621371,-5.6843057
4980051000,0.18696296,-158.28822,-52.385666,-170.94334,-52.522766,-170.58575,-0.016379131,-8.475791
5010049500,0.18112721,-160.1973,-52.891346,-171.76338,-52.779919,-172.75661,-0.0090054814,-11.372845
5040048000,0.18545961,-162.21463,-53.256924,-175.59264,-53.278473,-176.15685,-0.010262961,-14.295079
5070046500,0.18704627,-164.27245,-53.78611,-177.63602,-53.976093,-178.76318,-0.019401576,-17.334524
5100045000,0.18894216,-166.33389,-54.126347,-179.61386,-54.049526,-178.92531,-0.026063943,-20.466097
5130043500,0.18874735,-168.40497,-54.702225,176.90768,-54.560188,176.203,-0.026364215,-23.651852
5160042000,0.18839391,-170.49202,-55.026619,175.08617,-55.102715,172.69145,-0.015500189,-26.837154
5190040500,0.18420286,-172.5481,-55.416695,172.24275,-55.328133,172.0462,0.0063839625,-30.061466
5220039000,0.18741222,-174.5779,-56.28616,169.45154,-55.826752,170.92719,0.037988253,-33.19466
5250037500,0.18439093,-176.56651,-56.558983,168.45392,-56.655602,165.81065,0.072723679,-36.272598
5280036000,0.18170914,-178.52122,-56.796749,164.87874,-56.925816,162.53954,0.11842304,-39.255829
5310034500,0.18396914,179.54692,-57.095417,162.6801,-57.065514,161.87207,0.15639669,-42.227489
5340033000,0.1876775,177.6488,-57.770962,158.85263,-57.805676,160.69112,0.19240358,-45.152317
5370031500,0.19181466,175.7746,-57.856407,156.55005,-58.094044,153.38345,0.21900438,-48.058479
5400030000,0.19532181,173.9332,-58.186317,152.59789,-58.662251,155.68875,0.23489641,-50.971565
5430028500,0.19521193,172.13322,-59.347786,152.08852,-59.057243,150.57553,0.24258983,-53.892139
5460027000,0.19809265,170.34474,-59.019402,148.37289,-59.344582,150.78799,0.24566437,-56.828484
5490025500,0.19859369,168.53523,-59.898895,145.44189,-60.118614,142.93184,0.24511148,-59.798691
5520024000,0.19530696,166.7494,-59.946522,142.79471,-60.038715,144.48872,0.24805319,-62.816048
5550022500,0.20051025,164.96527,-60.640484,142.6199,-60.246223,147.17885,0.2532821,-65.801315
5580021000,0.20072283,163.15707,-60.71307,137.40536,-60.451904,138.25142,0.26974329,-68.773354
5610019500,0.20636694,161.347,-60.997368,138.47746,-61.403053,136.03569,0.29228601,-71.726685
5640018000,0.21042764,159.58894,-61.804459,136.29462,-62.015808,137.10788,0.32161149,-74.641197
5670016500,0.21638329,157.86096,-61.688343,132.78806,-62.286461,132.52594,0.35366383,-77.551376
5700015000,0.22692105,156.187,-62.327908,130.98468,-62.754433,127.187,0.38131747,-80.42012
5730013500,0.238933,154.5838,-62.935642,134.07726,-63.237301,130.83786,0.40310773,-83.312347
5760012000,0.2544111,153.04866,-64.161591,126.61983,-62.643093,124.88337,0.42118871,-86.222252
5790010500,0.2685219,151.54681,-63.719894,117.6927,-63.372585,124.06742,0.43144506,-89.159866
5820009000,0.28327724,150.14241,-64.359314,116.90198,-63.786026,121.80753,0.43438086,-92.162254
5850007500,0.30779493,148.83746,-65.126091,121.27798,-64.260872,124.75941,0.42961842,-95.177086
5880006000,0.32665372,147.52988,-64.515022,114.56715,-64.981903,121.99927,0.42519906,-98.220863
5910004500,0.34795001,146.2016,-64.602875,118.00824,-65.1978,118.43791,0.42592615,-101.25919
5940003000,0.36550492,144.85078,-66.854828,116.56004,-65.758102,115.86591,0.4253225,-104.27322
5970001500,0.3773461,143.49644,-66.882813,119.12267,-67.05069,117.36404,0.4326857,-107.29171
