!CSV A.01.01
!Keysight Technologies,P9374A,MY57211795,A.19.30.04
!Date: Tuesday, October 14, 2025 13:50:03
!Source: Standard

BEGIN CH1_DATA
Freq(Hz),S11(DB),S11(DEG),S21(DB),S21(DEG),S21_Mem(DB),S21_Mem(DEG),S12(DB),S12(DEG),S22(DB),S22(DEG)
300000,-56.434666,-108.64554,0.012417332,0.072801948,0.014403891,0.077750295,0.014797585,0.085168354,-51.161411,-148.91142
30298500,-54.302357,-121.19044,0.018819166,-0.025227228,0.021537991,0.080831006,0.01987835,-0.039826088,-48.386078,-136.13321
60297000,-50.496948,-128.87421,0.024971193,-0.098932251,0.029509956,0.10640745,0.026243987,-0.10722376,-45.434219,-123.68093
90295500,-50.024189,-135.91591,0.030275552,-0.18606241,0.034318272,0.11703649,0.031290825,-0.19787574,-43.915958,-117.73624
120294000,-50.36216,-145.77159,0.034635693,-0.27091292,0.038416248,0.12593529,0.036442701,-0.2830494,-43.070904,-112.79126
150292500,-53.19175,-163.51494,0.039114602,-0.36289349,0.042280678,0.1331742,0.041658722,-0.37285194,-42.784222,-110.36659
180291000,-59.607704,169.31203,0.043564297,-0.45679069,0.047844049,0.13559541,0.046301488,-0.46943495,-42.814457,-110.16464
210289500,-58.848671,77.00145,0.047608498,-0.5561499,0.051410016,0.13861389,0.049069203,-0.56463134,-43.136166,-110.99099
240288000,-53.003517,45.640484,0.05238609,-0.66075379,0.054490965,0.1369476,0.052986052,-0.6744765,-43.319645,-115.49348
270286500,-48.969963,28.990875,0.054915804,-0.76885653,0.057112958,0.12117557,0.056810971,-0.78003305,-43.056713,-122.47144
300285000,-47.246674,21.220924,0.05893413,-0.88107997,0.060393583,0.11425232,0.059732348,-0.89697063,-42.193466,-126.46047
330283500,-46.531498,10.96527,0.059266102,-1.0101992,0.061779559,0.084187359,0.062907413,-1.0257287,-41.172611,-130.28059
360282000,-46.502907,0.15324005,0.062842093,-1.1377183,0.064033441,0.05818785,0.065358587,-1.1544905,-39.927921,-131.78625
390280500,-47.097565,-5.4835815,0.066434525,-1.2645601,0.06645339,0.029084124,0.067065179,-1.2760025,-38.720657,-130.78262
420279000,-48.74828,-16.661591,0.067817554,-1.3900647,0.06858509,0.0012807527,0.071064137,-1.4117868,-37.770847,-129.09103
450277500,-51.969479,-23.424078,0.071148679,-1.5206152,0.070229284,-0.023289705,0.072592326,-1.5387162,-37.0854,-125.91846
480276000,-58.198166,-30.993002,0.073558562,-1.6509322,0.072452821,-0.050646808,0.075907074,-1.667689,-36.722889,-122.19447
510274500,-73.047729,98.415779,0.077088229,-1.7618946,0.07592997,-0.071070798,0.079800315,-1.7810818,-36.654545,-118.32591
540273000,-54.140003,117.99854,0.082868308,-1.8801255,0.080813222,-0.085812502,0.08485692,-1.8999513,-36.770687,-114.52196
570271500,-49.313976,109.61419,0.089418761,-1.9816407,0.085954435,-0.090912439,0.089190528,-2.0011578,-37.416435,-110.75771
600270000,-45.866505,101.25261,0.092989787,-2.0913041,0.090081073,-0.092351332,0.095467098,-2.1040857,-38.065624,-107.36432
630268500,-43.151852,94.073708,0.099117167,-2.1876132,0.095401764,-0.088729516,0.10087478,-2.2022085,-38.921986,-104.2231
660267000,-41.406631,86.545586,0.10338855,-2.2820249,0.099852882,-0.083134651,0.10566036,-2.3079579,-39.938084,-102.5794
690265500,-40.025898,79.817749,0.10832336,-2.3874619,0.10335317,-0.083615795,0.10888888,-2.4014835,-40.574764,-103.87275
720264000,-39.01128,73.342407,0.11149944,-2.4867268,0.10746028,-0.082580365,0.11400051,-2.5104198,-41.122093,-108.09602
750262500,-38.168095,66.786316,0.11459959,-2.5924833,0.1086339,-0.083373576,0.11719109,-2.6177847,-40.823227,-114.67173
780261000,-37.699986,61.50576,0.11555804,-2.7110162,0.11066829,-0.093990594,0.11812176,-2.7310557,-40.068779,-121.4262
810259500,-37.528282,56.65023,0.1167723,-2.8383334,0.11067132,-0.11921147,0.11971357,-2.8635259,-38.914818,-126.38457
840258000,-37.525188,53.965717,0.11838828,-2.9661837,0.11222348,-0.14844325,0.12129018,-2.9915597,-37.664288,-128.40012
870256500,-37.753582,50.767513,0.11874899,-3.1028469,0.11265229,-0.17894778,0.1212192,-3.1332159,-36.763145,-129.7874
900255000,-38.214447,50.5481,0.11979465,-3.2473748,0.11374784,-0.22267668,0.12242433,-3.2772448,-35.990673,-129.75105
930253500,-38.742298,50.607262,0.12243339,-3.3912587,0.11596232,-0.26238692,0.12470181,-3.4151194,-35.544415,-129.54239
960252000,-39.425339,51.712166,0.12490605,-3.5335693,0.11834496,-0.30430305,0.12676439,-3.5597117,-35.387215,-128.78633
990250500,-40.234062,54.126759,0.12890439,-3.6752701,0.12078569,-0.33973551,0.13215788,-3.6980903,-35.658741,-127.27754
1020249000,-40.763832,54.690643,0.13408589,-3.7999048,0.12639177,-0.36348265,0.13567136,-3.8292708,-35.917755,-127.50392
1050247500,-41.502834,54.620258,0.13831753,-3.9271047,0.12924764,-0.38734019,0.14197987,-3.9593596,-36.336235,-127.98479
1080246000,-42.048317,53.847137,0.14472185,-4.0502381,0.13554741,-0.40414149,0.1458519,-4.0768719,-36.847248,-128.71156
1110244500,-42.559498,49.399227,0.14994055,-4.1618552,0.14007489,-0.41396716,0.1523551,-4.1970983,-36.901817,-129.98071
1140243000,-42.932056,42.384506,0.15428318,-4.2751966,0.14486456,-0.42494187,0.15628232,-4.3108926,-36.902084,-132.39772
1170241500,-42.917442,35.578983,0.15765202,-4.3870792,0.14846686,-0.4367429,0.16019551,-4.4262309,-36.335445,-133.5076
1200240000,-42.845707,29.03896,0.16105965,-4.5108552,0.15087374,-0.45556492,0.16327158,-4.5470481,-35.488022,-133.6483
1230238500,-42.663551,22.93758,0.16164827,-4.6376452,0.15242508,-0.47896031,0.16437787,-4.6670523,-34.431843,-132.54546
1260237000,-42.555222,18.311405,0.16377266,-4.7511287,0.15302338,-0.48625505,0.1648225,-4.8185997,-33.315216,-131.20055
1290235500,-42.393768,17.968716,0.16259441,-4.8979063,0.15168373,-0.51743776,0.16528602,-4.9610038,-32.312763,-129.30563
1320234000,-42.408092,19.942934,0.16301727,-5.0320158,0.15159224,-0.55952269,0.16585265,-5.1055522,-31.396637,-126.92095
1350232500,-42.608566,24.1292,0.16312449,-5.1795511,0.15116625,-0.60647106,0.16561046,-5.2524433,-30.672083,-124.27252
1380231000,-42.915295,30.123573,0.16351341,-5.3309178,0.15116625,-0.64768654,0.16537623,-5.3935118,-30.159693,-121.49719
1410229500,-43.410069,36.912018,0.16487783,-5.4645314,0.1526785,-0.68430817,0.16809003,-5.5466828,-29.964289,-119.1917
1440228000,-44.24229,47.563931,0.16655473,-5.5969486,0.15383947,-0.71271408,0.16951476,-5.6773977,-29.856178,-116.30352
1470226500,-45.378887,57.090473,0.16943859,-5.7311349,0.15548117,-0.74076742,0.17232053,-5.8000879,-29.944845,-113.84184
1500225000,-47.069878,67.410088,0.17263846,-5.8554935,0.15962565,-0.7580598,0.17514636,-5.9247437,-30.147402,-111.65417
1530223500,-49.127926,82.938911,0.17600951,-5.9707198,0.16267769,-0.76791745,0.17838626,-6.0434222,-30.355749,-110.40652
1560222000,-52.120186,107.49311,0.17952497,-6.0887723,0.1663928,-0.78661883,0.18277451,-6.160965,-30.47016,-109.29504
1590220500,-53.265572,152.55122,0.18342522,-6.196321,0.16949235,-0.79792213,0.18642437,-6.2733679,-30.480877,-109.43163
1620219000,-49.203014,-168.81929,0.18809545,-6.3091211,0.17301011,-0.80572057,0.19003747,-6.3917327,-30.283195,-109.96507
1650217500,-46.136276,-157.32329,0.19062664,-6.4318233,0.17514238,-0.81828839,0.19240606,-6.4988799,-29.912092,-110.9614
1680216000,-43.452705,-151.14171,0.1923808,-6.552228,0.177371,-0.84650457,0.19556087,-6.6247497,-29.455896,-112.01591
1710214500,-41.84697,-150.80859,0.19447882,-6.6832223,0.17812887,-0.87400967,0.19726999,-6.7629871,-28.901104,-112.99883
1740213000,-40.532387,-153.15508,0.19542922,-6.8174939,0.17898148,-0.90653527,0.19794129,-6.8957205,-28.374947,-113.35652
1770211500,-39.63007,-158.62543,0.19675,-6.9553332,0.17927659,-0.93942904,0.19984776,-7.0420218,-27.947344,-113.39584
1800210000,-38.993073,-163.9639,0.1981426,-7.1022186,0.18113911,-0.97977668,0.20078956,-7.1873546,-27.671051,-113.24377
1830208500,-38.69025,-170.47717,0.19861941,-7.250998,0.1798851,-1.0295135,0.20159672,-7.3277855,-27.485764,-112.63441
1860207000,-38.350967,-177.78838,0.19962922,-7.3905416,0.18148322,-1.0650365,0.2020084,-7.4737568,-27.49189,-111.71514
1890205500,-38.179169,175.74913,0.20011623,-7.5302343,0.18084116,-1.096185,0.20185125,-7.6118803,-27.579903,-110.34249
1920204000,-38.209286,170.31665,0.20183493,-7.6666989,0.18168432,-1.1303124,0.20346107,-7.7451282,-27.791063,-108.99754
1950202500,-38.246475,166.96463,0.20281138,-7.7952609,0.18393143,-1.1482458,0.20449692,-7.8746223,-28.079128,-108.09814
1980201000,-38.685226,165.1736,0.20529154,-7.9138331,0.18440978,-1.1611191,0.20675595,-7.9999599,-28.384254,-107.36076
2010199500,-39.228401,166.481,0.20593987,-8.0388699,0.18585894,-1.1843607,0.20896743,-8.122551,-28.7428,-106.86794
2040198000,-39.988689,170.3775,0.20722194,-8.1549044,0.18662573,-1.1970332,0.21139674,-8.2483673,-29.062395,-107.1302
2070196500,-40.875824,178.06114,0.2102116,-8.2832108,0.18927523,-1.2272409,0.21355903,-8.3645267,-29.330875,-108.22392
2100195000,-41.628258,-173.12027,0.21229067,-8.4034252,0.19155806,-1.2364314,0.21495563,-8.4848986,-29.469658,-109.75074
2130193500,-41.914978,-161.39619,0.21547049,-8.5303621,0.19444022,-1.2590252,0.21718264,-8.6082058,-29.518501,-112.02882
2160192000,-42.231819,-151.15102,0.21784446,-8.6575031,0.19645213,-1.2886221,0.22001094,-8.7369347,-29.45863,-114.40144
2190190500,-42.375862,-143.37399,0.21873905,-8.7928162,0.19704637,-1.3163031,0.22268492,-8.875864,-29.329657,-116.97277
2220189000,-42.825569,-139.82755,0.22175278,-8.9270821,0.19871338,-1.3550789,0.22437505,-9.0170546,-29.123709,-119.35417
2250187500,-43.403198,-137.99399,0.22418626,-9.0676718,0.20025367,-1.3906778,0.22584975,-9.1644945,-28.988516,-121.71543
2280186000,-44.891727,-138.67155,0.22547129,-9.2229424,0.20160265,-1.4314026,0.22691712,-9.3058615,-28.81881,-123.70599
2310184500,-46.543648,-143.40193,0.22603111,-9.3646622,0.20195305,-1.4765854,0.22922002,-9.450799,-28.761978,-125.55566
2340183000,-49.219383,-157.78658,0.22835216,-9.5164289,0.20326939,-1.5229446,0.23006317,-9.593399,-28.78458,-127.03687
2370181500,-50.669685,-178.27536,0.22900933,-9.6485653,0.20441592,-1.5530906,0.23188786,-9.7367916,-28.956921,-127.84121
2400180000,-50.879936,153.5224,0.23188835,-9.7964334,0.20543721,-1.5983331,0.23357147,-9.894021,-29.114946,-128.67735
2430178500,-50.354797,133.04048,0.23308426,-9.9394903,0.20632695,-1.630823,0.23442946,-10.023049,-29.378134,-129.38489
2460177000,-49.208141,119.51656,0.23505041,-10.076941,0.20837383,-1.6690073,0.23756959,-10.161467,-29.6126,-129.63637
2490175500,-49.340996,107.51646,0.23878795,-10.204661,0.21154961,-1.6883131,0.24029548,-10.2903,-29.878376,-129.89459
2520174000,-50.878204,96.605606,0.24050073,-10.33096,0.21374682,-1.7168211,0.2443251,-10.43745,-30.144411,-130.1747
2550172500,-52.36322,75.124954,0.2444538,-10.467566,0.21612026,-1.740029,0.24787226,-10.561399,-30.332523,-131.70279
2580171000,-51.193859,41.851067,0.24884625,-10.589928,0.21999224,-1.7658966,0.25159782,-10.679227,-30.495386,-133.44215
2610169500,-48.782856,20.05818,0.25412011,-10.708733,0.22435932,-1.7788115,0.25516784,-10.806229,-30.665016,-135.32304
2640168000,-45.217167,7.734642,0.25692543,-10.842705,0.22728808,-1.804933,0.25961775,-10.926561,-30.744762,-138.61461
2670166500,-42.138275,5.239923,0.26045355,-10.947403,0.23112804,-1.8156524,0.26272705,-11.049355,-30.774042,-142.62921
2700165000,-39.920563,6.357748,0.26350817,-11.068217,0.23358864,-1.8248987,0.26597533,-11.174079,-30.807486,-146.84038
2730163500,-38.016548,7.9322128,0.26537097,-11.198795,0.23445645,-1.8441268,0.26697496,-11.294932,-30.662722,-151.36156
2760162000,-36.583916,10.969556,0.26540944,-11.328373,0.23399828,-1.8707528,0.26719549,-11.422366,-30.510254,-155.22356
2790160500,-35.503235,14.225796,0.26355639,-11.46481,0.23255774,-1.9004741,0.26660103,-11.559842,-30.160612,-158.10031
2820159000,-34.729546,18.538061,0.26204279,-11.60597,0.2307515,-1.9416888,0.26485616,-11.69601,-29.979025,-159.99857
2850157500,-34.395004,22.788134,0.26147103,-11.754784,0.22902702,-1.9873379,0.26339316,-11.85436,-29.747606,-160.4994
2880156000,-34.185017,27.735962,0.25896811,-11.904788,0.22829616,-2.0316632,0.26247069,-12.000677,-29.609922,-160.29681
2910154500,-34.300251,32.302002,0.25866911,-12.067187,0.2259161,-2.088352,0.26102495,-12.166587,-29.56366,-159.48126
2940153000,-34.527901,37.276138,0.25844669,-12.228099,0.22635251,-2.1502547,0.26205498,-12.32219,-29.500378,-158.10252
2970151500,-34.903362,42.215385,0.26147589,-12.391065,0.22717164,-2.2009404,0.26283571,-12.486746,-29.582434,-156.23335
3000150000,-35.232059,47.266251,0.26405334,-12.534214,0.22935949,-2.2486088,0.26671985,-12.6389,-29.797009,-153.82162
3030148500,-35.53294,52.032417,0.2672841,-12.681269,0.23281145,-2.2833478,0.26940027,-12.78068,-30.151049,-151.87456
3060147000,-35.796444,54.237473,0.27215245,-12.816686,0.23633911,-2.3182607,0.27436784,-12.917092,-30.427393,-150.19838
3090145500,-35.853458,55.640556,0.27609822,-12.945364,0.23956065,-2.3434215,0.2790404,-13.047219,-30.817957,-149.71268
3120144000,-35.561619,54.696365,0.27951083,-13.054233,0.24253108,-2.3455431,0.28090239,-13.160564,-31.11307,-149.5121
3150142500,-34.958786,52.801483,0.28365409,-13.16656,0.24627979,-2.3533928,0.2846089,-13.273386,-31.312441,-150.48782
3180141000,-34.158657,51.432159,0.28459775,-13.274745,0.24672003,-2.3568532,0.28621113,-13.385359,-31.335371,-151.84329
3210139500,-33.28447,51.230854,0.28384808,-13.383305,0.2451428,-2.3719537,0.28563529,-13.492713,-31.34008,-153.6985
3240138000,-32.311924,51.670124,0.28103632,-13.501772,0.24313618,-2.3727989,0.2840144,-13.602375,-31.289259,-155.21599
3270136500,-31.471659,53.841301,0.27860245,-13.620665,0.23902854,-2.3829408,0.27968946,-13.722317,-31.179428,-155.43753
3300135000,-30.811909,57.311272,0.27302524,-13.750076,0.23429801,-2.407275,0.27638096,-13.848226,-31.241095,-153.90816
3330133500,-30.259407,61.540436,0.26995346,-13.876178,0.22975677,-2.4401803,0.27136901,-13.987891,-31.351765,-151.11815
3360132000,-29.853849,66.843384,0.26611459,-14.02422,0.22519112,-2.4762444,0.26876035,-14.139072,-31.595709,-147.11783
3390130500,-29.673725,72.490593,0.26283571,-14.176015,0.22241832,-2.5227263,0.26408356,-14.282823,-31.876007,-141.16655
3420129000,-29.486666,78.396141,0.26213053,-14.320368,0.2198185,-2.5709147,0.26373181,-14.439096,-32.219002,-133.91481
3450127500,-29.527412,84.318481,0.26181078,-14.485052,0.22006162,-2.6262784,0.26363581,-14.594947,-32.452324,-126.5006
3480126000,-29.604116,89.520683,0.26527306,-14.627163,0.22280148,-2.6692083,0.2663902,-14.747725,-32.727306,-119.58548
3510124500,-29.797255,94.292671,0.26656061,-14.766405,0.2240117,-2.7046373,0.26859733,-14.88894,-33.100159,-113.77644
3540123000,-30.097462,97.786484,0.27082863,-14.913404,0.22746447,-2.7383146,0.27198276,-15.020158,-33.543129,-108.88445
3570121500,-30.502535,99.865082,0.2745851,-15.033156,0.23122278,-2.7577055,0.27743357,-15.14162,-34.076313,-105.1886
3600120000,-30.846754,100.22897,0.2772252,-15.143024,0.23398602,-2.7504833,0.28031561,-15.254582,-34.839333,-103.69606
3630118500,-31.141466,100.11922,0.28058302,-15.248187,0.23534074,-2.758229,0.2815856,-15.355902,-35.43816,-102.96725
3660117000,-31.192465,98.54911,0.28005642,-15.34275,0.23562959,-2.7488501,0.28207809,-15.464066,-35.999077,-103.6144
3690115500,-31.121683,98.110924,0.27864176,-15.440935,0.23255678,-2.7363439,0.28145266,-15.566121,-36.10297,-105.20059
3720114000,-30.805559,97.919205,0.27483147,-15.547647,0.22887281,-2.7385564,0.27682886,-15.667342,-36.013195,-105.85188
3750112500,-30.355259,99.453171,0.26931268,-15.658648,0.22301739,-2.7512114,0.27168611,-15.779088,-35.587193,-105.17759
3780111000,-29.790323,101.48423,0.26529646,-15.788221,0.21904229,-2.7808218,0.26757813,-15.902057,-34.854549,-103.5032
3810109500,-29.147699,104.6355,0.26249701,-15.909667,0.21374041,-2.7895668,0.263515,-16.032707,-34.142361,-99.207817
3840108000,-28.594582,108.27541,0.25763637,-16.037081,0.20995264,-2.8192668,0.26014686,-16.150883,-33.465576,-93.314507
3870106500,-28.253256,111.68467,0.25556913,-16.172003,0.20695834,-2.8512611,0.25809592,-16.287334,-32.912418,-88.036301
3900105000,-27.997803,114.91532,0.2575866,-16.295662,0.20909128,-2.8664079,0.25860766,-16.417048,-32.373508,-80.702316
3930103500,-27.973541,117.61418,0.2601805,-16.414679,0.21099237,-2.8846099,0.26119316,-16.528736,-31.967422,-73.492149
3960102000,-28.131977,119.76195,0.26224896,-16.518761,0.21345504,-2.8777025,0.26533446,-16.635891,-31.689877,-67.6175
3990100500,-28.521927,121.87564,0.26720038,-16.617462,0.21774548,-2.8747187,0.27027407,-16.739504,-31.746742,-61.437149
4020099000,-29.039522,123.13413,0.27281278,-16.708414,0.22199284,-2.8650918,0.27282104,-16.826874,-31.957813,-58.266239
4050097500,-29.737291,123.37588,0.27477413,-16.79031,0.22343786,-2.8380468,0.27755111,-16.920904,-32.611626,-54.932011
4080096000,-30.578136,122.8059,0.27502781,-16.883038,0.22429836,-2.8255017,0.27804112,-17.008999,-33.752502,-54.48798
4110094500,-31.188784,120.53428,0.27434501,-16.978203,0.22352834,-2.8198223,0.27714553,-17.102242,-35.082336,-57.18594
4140093000,-31.629148,118.12269,0.26946351,-17.072193,0.21774696,-2.8052368,0.27116084,-17.192354,-36.88237,-62.250965
4170091500,-31.815264,115.29041,0.26568168,-17.162518,0.21188787,-2.7884111,0.26786533,-17.288103,-38.208748,-70.867325
4200090000,-31.595299,113.59321,0.25869206,-17.276932,0.2064089,-2.795804,0.26239711,-17.406647,-39.018696,-82.491158
4230088500,-31.170732,112.78293,0.25168625,-17.397049,0.19906846,-2.8120127,0.25347012,-17.521858,-38.742188,-91.450119
4260087000,-30.680868,113.7197,0.24670537,-17.518364,0.19307019,-2.8325348,0.24775197,-17.645802,-37.872475,-94.301468
4290085500,-30.199835,115.68179,0.24346465,-17.650023,0.18933076,-2.855984,0.24433342,-17.769707,-37.06274,-94.31797
4320084000,-29.786865,117.9964,0.24309261,-17.777666,0.18874042,-2.8808804,0.24441759,-17.899158,-36.135269,-92.841309
4350082500,-29.506065,119.09294,0.24466521,-17.893435,0.18966876,-2.8875511,0.24674547,-18.025656,-35.798405,-90.662521
4380081000,-29.431597,119.73525,0.2478175,-18.015635,0.19284438,-2.9043355,0.24994415,-18.145506,-35.660919,-88.792114
4410079500,-29.579535,119.37213,0.25346819,-18.12574,0.1980333,-2.9145632,0.25476754,-18.25695,-36.188652,-88.945938
4440078000,-29.906124,116.9566,0.25732556,-18.218124,0.20092697,-2.9012432,0.25914225,-18.347765,-37.389561,-90.480957
4470076500,-30.405508,112.69016,0.25991622,-18.301115,0.20273232,-2.8891742,0.263648,-18.431791,-39.296677,-96.895477
4500075000,-30.819769,105.93235,0.26308668,-18.390692,0.20501351,-2.8655932,0.26546448,-18.523151,-41.129337,-112.5223
4530073500,-31.386255,99.560226,0.25688201,-18.488411,0.19967817,-2.8581169,0.25979185,-18.611301,-42.753147,-146.85924
4560072000,-31.794395,92.677544,0.24746686,-18.592764,0.18917611,-2.8668513,0.24928965,-18.713005,-40.442852,-175.34753
4590070500,-31.48513,85.849182,0.24216387,-18.674864,0.18329172,-2.8469517,0.24350283,-18.799105,-38.236073,178.34956
4620069000,-31.31979,82.090607,0.23173472,-18.803288,0.17267179,-2.8652537,0.23341349,-18.934898,-35.958687,174.29884
4650067500,-30.705877,80.101151,0.22499005,-18.930117,0.16606493,-2.8900697,0.2273102,-19.063087,-34.578495,176.22519
4680066000,-30.3286,80.599014,0.21475065,-19.099625,0.15645611,-2.9465983,0.21637885,-19.232321,-33.546738,176.32111
4710064500,-29.573612,82.00573,0.21142879,-19.266632,0.15391743,-3.0123823,0.21375668,-19.399017,-33.332375,-179.02573
4740063000,-28.965588,83.696045,0.2094909,-19.430658,0.15212665,-3.0689175,0.21126556,-19.564894,-33.191566,-177.13139
4770061500,-28.555532,84.440186,0.21227293,-19.610029,0.1542722,-3.1453629,0.21299121,-19.745911,-33.480534,-176.55287
4800060000,-28.265728,84.132515,0.2172634,-19.771715,0.15890749,-3.1926415,0.21883799,-19.912569,-33.937683,-177.06299
4830058500,-28.042625,82.958511,0.2234177,-19.950596,0.16657914,-3.2669208,0.22599228,-20.086731,-34.648464,-179.49367
4860057000,-27.850292,80.088173,0.23157226,-20.089113,0.17272455,-3.3044109,0.23168123,-20.222719,-35.561893,175.85768
4890055500,-27.824007,76.613724,0.2389276,-20.212646,0.18057846,-3.3330321,0.24155079,-20.349672,-35.848949,170.12654
4920054000,-27.773869,71.940025,0.24761064,-20.351294,0.18772757,-3.3600068,0.25019342,-20.484806,-35.203243,164.11308
