!CSV A.01.01
!Keysight Technologies,P9374A,MY57211795,A.19.30.04
!Date: Tuesday, October 14, 2025 13:08:08
!Source: Standard

!CW Freq: 1000000000 Hz
BEGIN CH1_DATA
"Time(s)","b1,2 (DB)","b1,2 (DEG)","a2,2 (DB)","a2,2 (DEG)","S22 (DB)","S22 (DEG)"
0.0001,-92.242119,-61.462265,-40.455238,105.3233,-0.52838266,-114.49307
0.0002,-91.173149,-126.23335,-40.482941,106.75097,-0.472442,-116.77287
0.0003,-81.587769,-119.5467,-40.493778,106.44408,-0.38673595,-116.76864
0.0004,-79.004005,44.641876,-40.479397,106.93475,-0.42039156,-117.15605
0.0005,-80.215958,102.45805,-40.314869,106.64823,-0.52145833,-116.36673
0.0006,-87.111069,-114.26492,-40.509941,106.1855,-0.4207235,-115.99809
0.0007,-90.518303,-140.22481,-40.441761,106.55837,-0.45792478,-116.65548
0.0008,-80.475082,153.59596,-40.424255,105.86821,-0.52444822,-115.71777
0.0009,-94.145988,-153.10863,-40.490238,106.82967,-0.3559705,-116.81644
0.001,-86.295006,142.77399,-40.383121,105.97423,-0.51568341,-115.85942
0.0011,-82.272713,-20.481489,-40.423252,106.63543,-0.50464624,-116.31223
0.0012,-87.27005,57.380844,-40.416801,106.37868,-0.49571353,-116.51236
0.0013,-94.579636,106.3241,-40.520065,106.17377,-0.30923551,-116.05293
0.0014,-86.288826,134.95667,-40.445419,106.31815,-0.42574063,-116.39159
0.0015,-90.636627,-68.704315,-40.467266,106.55657,-0.5013954,-116.58936
0.0016,-94.795387,72.559761,-40.382595,105.98987,-0.50684029,-115.88358
0.0017,-85.436775,-56.098026,-40.4884,106.52534,-0.38520706,-116.66434
0.0018,-80.986855,-152.73105,-40.409878,106.5613,-0.4763501,-116.28133
0.0019,-82.202866,-23.858133,-40.44141,107.50368,-0.44802898,-117.65243
0.002,-80.002296,162.13,-40.498264,106.11829,-0.3374407,-116.20478
0.0021,-95.447311,74.438637,-40.370144,105.90532,-0.5119344,-116.0425
0.0022,-97.11557,-150.55737,-40.440441,106.3287,-0.45721492,-116.64532
0.0023,-86.512115,121.00501,-40.487022,106.83028,-0.47628856,-116.98186
0.0024,-92.369423,38.474117,-40.311081,106.70182,-0.58093488,-116.95017
0.0025,-86.275108,-106.06617,-40.462151,106.15138,-0.45227221,-116.13422
0.0026,-84.349167,-28.526583,-40.412441,106.80016,-0.55148494,-117.09649
0.0027,-86.008812,113.9459,-40.446346,105.92427,-0.40192053,-115.93145
0.0028,-84.8274,-115.08865,-40.472607,106.38792,-0.39711913,-116.51067
0.0029,-88.269524,70.168175,-40.484909,106.83588,-0.41919202,-116.53477
0.003,-82.912949,96.827065,-40.444637,106.98656,-0.43937051,-117.46236
0.0031,-87.608635,-130.98227,-40.47221,105.95236,-0.40443456,-115.86179
0.0032,-88.619957,108.21973,-40.428051,106.5256,-0.43959108,-116.60117
0.0033,-89.685013,171.85777,-40.468788,105.82915,-0.47717458,-116.10755
0.0034,-92.984482,-149.10678,-40.400002,106.91187,-0.51875687,-117.06588
0.0035,-79.924744,104.27497,-40.527405,107.02197,-0.40358058,-117.04929
0.0036,-89.38784,90.880623,-40.450844,106.46569,-0.47250521,-116.22524
0.0037,-90.815842,150.42433,-40.526474,105.95289,-0.44318759,-116.42661
0.0038,-81.349464,-81.974548,-40.43845,106.2105,-0.45961303,-116.68247
0.0039,-82.275047,-82.915222,-40.433327,106.17297,-0.48326385,-115.89141
0.004,-87.831818,-43.855957,-40.322327,106.26183,-0.53420371,-115.68569
0.0041,-81.699593,107.57084,-40.391331,106.14706,-0.54612297,-116.28116
0.0042,-87.524345,74.754295,-40.429031,106.44348,-0.43461943,-116.65907
0.0043,-100.686,-55.732342,-40.38245,106.18438,-0.5327034,-115.89465
0.0044,-90.850021,-51.258511,-40.352745,106.352,-0.49174657,-116.39124
0.0045,-92.445297,173.18111,-40.505009,106.6915,-0.43692949,-116.59285
0.0046,-81.756157,117.13136,-40.428974,106.71912,-0.47878969,-116.70663
0.0047,-90.952774,-108.85287,-40.506153,106.07464,-0.38492987,-115.74623
0.0048,-82.316551,-154.03255,-40.361069,106.63571,-0.50679231,-116.74805
0.0049,-80.912903,-93.086212,-40.38929,106.18941,-0.41557372,-116.47914
0.005,-82.348564,-17.362728,-40.469036,106.94948,-0.42498523,-116.90797
0.0051,-82.54023,-34.383934,-40.436359,106.3202,-0.47306055,-116.34659
0.0052,-86.567757,-0.56315064,-40.441772,105.93774,-0.35310048,-116.10837
0.0053,-103.19951,41.034515,-40.445652,106.25794,-0.34584206,-116.40506
0.0054,-85.450386,125.61774,-40.507145,107.25122,-0.39525911,-116.88433
0.0055,-83.165802,-92.692863,-40.401463,106.88788,-0.35768616,-117.38557
0.0056,-91.840927,-114.21457,-40.40366,106.27996,-0.53641772,-116.27847
0.0057,-77.39547,-70.758751,-40.502308,106.3205,-0.43037826,-116.56693
0.0058,-79.704872,124.23508,-40.454609,105.9952,-0.37329426,-115.49499
0.0059,-86.2183,20.81414,-40.37373,107.10683,-0.49937108,-117.09534
0.006,-87.239189,-176.06013,-40.42131,106.14358,-0.46463728,-116.57584
0.0061,-89.682762,107.34734,-40.443317,106.59241,-0.49552757,-116.46102
0.0062,-89.353287,129.10144,-40.394512,106.39902,-0.48523086,-116.00306
0.0063,-93.686066,-103.3884,-40.35236,106.03415,-0.60603499,-115.92461
0.0064,-80.613647,-85.800476,-40.499096,106.29563,-0.39762974,-116.58961
0.0065,-88.145615,-11.556724,-40.473343,105.59469,-0.46828371,-115.78864
0.0066,-86.822433,175.67142,-40.451138,106.40367,-0.48109937,-116.04369
0.0067,-90.726906,178.60057,-40.374306,106.75011,-0.52779359,-116.95168
0.0068,-85.443237,144.01941,-40.442932,106.32616,-0.47839314,-116.39447
0.0069,-83.59111,34.013683,-40.397629,106.01042,-0.45839366,-115.66888
0.007,-88.602486,-73.101051,-40.375687,106.66173,-0.51948565,-117.17223
0.0071,-85.39489,30.201437,-40.557838,106.43893,-0.28900582,-116.75568
0.0072,-77.082298,81.109131,-40.449406,106.09988,-0.48390505,-115.84193
0.0073,-106.45102,74.851936,-40.391739,106.40488,-0.52859521,-117.04554
0.0074,-88.439201,-95.35746,-40.467686,106.37357,-0.41974369,-116.22645
0.0075,-83.399986,158.74265,-40.42461,106.20164,-0.46562639,-116.30354
0.0076,-84.304886,-81.100571,-40.404274,106.81703,-0.49746674,-116.40605
0.0077,-85.30085,48.70295,-40.503441,106.15417,-0.40099207,-116.14811
0.0078,-88.220772,-121.48026,-40.517662,105.94785,-0.38800326,-115.84859
0.0079,-79.693954,121.87505,-40.451302,106.41252,-0.39481628,-116.27169
0.008,-82.030518,103.38566,-40.400414,105.86932,-0.50905317,-116.17103
0.0081,-86.766914,-82.223465,-40.454586,105.97298,-0.44411334,-116.24896
0.0082,-87.383751,-63.551968,-40.36087,106.67789,-0.48824114,-117.1251
0.0083,-85.088028,-149.21007,-40.435074,106.05477,-0.52139699,-115.98034
0.0084,-95.885597,76.940613,-40.37495,106.65495,-0.60114747,-116.95511
0.0085,-86.902206,50.474464,-40.410873,106.30292,-0.51968753,-116.18063
0.0086,-83.161781,50.58157,-40.485344,106.46591,-0.42106289,-116.89109
0.0087,-81.263016,-83.301613,-40.515491,106.31637,-0.42412177,-116.50284
0.0088,-79.746857,-145.56639,-40.488613,106.68962,-0.38734832,-116.62351
0.0089,-87.802559,-102.34324,-40.461063,106.36585,-0.49456844,-116.2914
0.009,-82.533028,-109.99952,-40.496597,106.31853,-0.38921404,-116.33408
0.0091,-84.153015,-10.979421,-40.344803,106.19526,-0.59061986,-116.48563
0.0092,-84.127861,35.598953,-40.342846,106.72543,-0.58061683,-116.18813
0.0093,-80.143295,-127.91942,-40.313599,105.96468,-0.55008203,-115.13599
0.0094,-83.548264,121.88544,-40.463303,105.84918,-0.44613987,-116.0924
0.0095,-89.806793,6.7766285,-40.431538,106.42425,-0.5012908,-115.97887
0.0096,-94.964539,34.207783,-40.352001,106.66322,-0.54966247,-116.59729
0.0097,-79.630592,-79.417671,-40.343666,106.2769,-0.63277858,-116.95537
0.0098,-78.823341,28.494808,-40.440578,106.23298,-0.50174809,-115.92931
0.0099,-86.000099,-22.473047,-40.52895,106.33633,-0.41822225,-115.78687
0.01,-77.420807,-83.013321,-40.533791,106.42461,-0.33754647,-116.01945
0.0101,-81.755913,-100.89218,-40.469521,106.22417,-0.43028596,-115.92507
0.0102,-89.493462,29.450588,-40.446968,105.83718,-0.36976671,-115.56212
0.0103,-107.07331,-136.67551,-40.334873,106.025,-0.47442204,-116.6675
0.0104,-89.974022,172.03192,-40.433758,106.43885,-0.47037289,-116.60752
0.0105,-83.291336,-178.51884,-40.403545,106.99017,-0.45021182,-117.21793
0.0106,-79.633278,-112.93271,-40.443005,106.36552,-0.49905425,-116.5699
0.0107,-108.35155,46.601849,-40.45393,106.48447,-0.43333873,-116.04774
0.0108,-94.9394,-155.37343,-40.542908,106.81652,-0.29275247,-116.77935
0.0109,-84.856522,-33.138847,-40.436604,106.79992,-0.39412346,-116.80397
0.011,-79.851372,-59.298622,-40.430721,106.26994,-0.4476496,-116.03779
0.0111,-78.032364,171.65369,-40.437443,106.22838,-0.47381312,-115.91548
0.0112,-81.430176,-155.46678,-40.450516,106.59354,-0.4965699,-116.48199
0.0113,-89.388268,-161.34766,-40.352032,106.82757,-0.56824332,-116.84693
0.0114,-86.42907,122.23755,-40.441811,106.22182,-0.46178842,-116.30988
0.0115,-85.20533,-62.496231,-40.494587,106.91837,-0.31674871,-116.89227
0.0116,-80.136353,89.045235,-40.418289,107.01543,-0.54394978,-117.13032
0.0117,-97.301956,7.7600284,-40.388889,106.00063,-0.52555364,-116.30228
0.0118,-85.116066,60.350651,-40.437019,106.33083,-0.45178533,-116.34454
0.0119,-86.117569,-158.85994,-40.50351,106.49364,-0.29314986,-116.41182
0.012,-88.539551,87.090355,-40.40205,106.65671,-0.43163466,-116.5143
0.0121,-104.37702,-65.483315,-40.370594,105.83238,-0.59268326,-116.30243
0.0122,-81.227356,-11.181271,-40.38525,106.38625,-0.49518985,-116.06911
0.0123,-93.31002,-127.64576,-40.40638,106.41889,-0.47736007,-116.13438
0.0124,-92.336624,-12.424261,-40.357655,105.90759,-0.54981381,-116.09959
0.0125,-84.032928,-3.1312337,-40.447937,106.9488,-0.42211148,-117.00654
0.0126,-81.300377,134.30516,-40.355217,106.5416,-0.48933762,-116.26124
0.0127,-83.877586,-153.56305,-40.516666,106.82291,-0.42654875,-116.9336
0.0128,-90.687897,-116.92918,-40.611248,107.1301,-0.24608766,-116.94495
0.0129,-93.263611,175.78833,-40.36549,106.10424,-0.47136822,-116.01286
0.013,-82.89196,-86.422981,-40.431511,106.77708,-0.4482893,-116.9013
0.0131,-81.598259,24.629749,-40.416313,106.29537,-0.52625573,-116.40736
0.0132,-85.927528,122.36054,-40.618347,106.32565,-0.26341203,-116.77978
0.0133,-83.464699,157.18875,-40.395535,106.68271,-0.50832039,-116.68792
0.0134,-88.992317,5.3929648,-40.487854,106.37926,-0.42018425,-116.63738
0.0135,-96.05619,-34.236843,-40.321602,106.57292,-0.52571142,-115.7416
0.0136,-87.117516,106.3264,-40.469177,107.39352,-0.40408823,-117.16714
0.0137,-86.597382,-92.94397,-40.414082,106.55171,-0.46397847,-116.94834
0.0138,-87.902229,71.120583,-40.401146,106.17649,-0.48313773,-115.8997
0.0139,-82.921478,-137.43634,-40.423557,106.7728,-0.45753014,-116.3139
0.014,-92.989395,101.08587,-40.469868,106.72213,-0.46296149,-117.10188
0.0141,-87.943939,154.05927,-40.516453,106.60274,-0.38681236,-115.96742
0.0142,-88.486473,-71.056282,-40.341106,107.15039,-0.57469362,-116.86038
0.0143,-80.576019,-123.23262,-40.487946,106.71487,-0.47918713,-116.19456
0.0144,-93.149055,-141.04977,-40.366108,107.14266,-0.50232172,-117.32482
0.0145,-93.631355,-15.428313,-40.370087,106.10491,-0.51837826,-116.29265
0.0146,-89.380707,14.130338,-40.479095,105.45615,-0.42191407,-115.23372
0.0147,-94.853157,-105.62262,-40.430859,106.3951,-0.50199074,-116.26101
0.0148,-85.141571,-23.712141,-40.406471,106.45615,-0.50274807,-116.50676
0.0149,-86.253281,68.08036,-40.381607,106.14021,-0.50761676,-116.31831
0.015,-84.817558,-22.980837,-40.486973,106.5574,-0.43065637,-116.45492
0.0151,-79.707947,69.996941,-40.372425,106.59853,-0.54156685,-116.25169
0.0152,-94.008858,88.195389,-40.461411,105.92962,-0.43366566,-115.82318
0.0153,-85.638626,-12.205202,-40.42741,106.41813,-0.45435399,-116.34447
0.0154,-89.374985,-97.619568,-40.329845,106.90257,-0.53931212,-117.04756
0.0155,-84.686913,-87.304871,-40.459019,106.73067,-0.39484745,-117.04387
0.0156,-86.720566,87.290031,-40.465656,106.91659,-0.44192326,-116.43601
0.0157,-85.941574,-17.005337,-40.408463,106.96653,-0.52746594,-116.58539
0.0158,-81.766441,-179.65479,-40.398884,106.5876,-0.47367772,-116.60021
0.0159,-99.618347,148.92244,-40.536125,106.68105,-0.23119548,-116.91953
0.016,-85.146599,-102.93632,-40.488083,106.03529,-0.3856577,-115.81225
0.0161,-81.522163,119.71165,-40.520679,106.3905,-0.41087219,-116.1842
0.0162,-83.509819,164.81264,-40.405418,106.81284,-0.46392977,-116.9825
0.0163,-85.42028,24.003744,-40.50161,106.65208,-0.38700846,-116.56823
0.0164,-82.002754,-6.5566602,-40.432171,106.90199,-0.48517126,-116.61091
0.0165,-87.95536,-82.240448,-40.420689,106.67288,-0.54883587,-117.0452
0.0166,-81.149414,-160.12144,-40.573463,106.58166,-0.25737786,-116.06214
0.0167,-81.430229,10.287826,-40.516415,106.4504,-0.43432131,-116.46527
0.0168,-95.133682,-46.639389,-40.477459,107.16856,-0.4322474,-117.38947
0.0169,-82.796646,85.022522,-40.456524,107.00325,-0.41980529,-116.58886
0.017,-80.757408,-35.333973,-40.403736,106.93017,-0.50179458,-116.59132
0.0171,-85.344765,-61.920036,-40.454502,106.55704,-0.38447562,-115.71507
0.0172,-104.4437,32.595688,-40.438229,106.21801,-0.40969262,-116.42542
0.0173,-80.790894,-107.38886,-40.484375,106.45314,-0.42660585,-116.00182
0.0174,-81.384247,135.44867,-40.354641,106.35342,-0.54838353,-115.81793
0.0175,-86.70118,21.10218,-40.439072,106.27605,-0.43660831,-115.85278
0.0176,-89.983376,56.287537,-40.419224,106.83031,-0.49744526,-116.71828
0.0177,-82.654778,-70.473488,-40.44318,106.18855,-0.45651469,-115.98262
0.0178,-83.425377,4.6553617,-40.396263,105.87409,-0.51185751,-115.76768
0.0179,-88.742249,27.485613,-40.328945,106.73691,-0.55028361,-116.66059
0.018,-89.934547,135.9393,-40.404755,106.57854,-0.37509128,-116.35155
0.0181,-90.058952,-55.542767,-40.50243,106.32874,-0.43091622,-116.35161
0.0182,-80.46048,-29.140825,-40.407341,106.685,-0.50426888,-117.01102
0.0183,-85.291817,-172.73175,-40.454494,106.0472,-0.39463654,-115.86255
0.0184,-90.660309,-37.651508,-40.476818,106.76001,-0.44598526,-116.77252
0.0185,-82.851868,-163.3647,-40.557552,106.24192,-0.34365168,-116.21109
0.0186,-82.506744,-4.9184809,-40.43256,106.27437,-0.49850723,-116.63892
0.0187,-84.081573,-28.513697,-40.476223,106.78718,-0.46059638,-116.65809
0.0188,-100.41277,12.222985,-40.369106,107.18261,-0.49243569,-117.14017
0.0189,-84.098175,60.655399,-40.501709,106.62624,-0.43522659,-116.79857
0.019,-83.854698,-22.546963,-40.437752,106.42857,-0.48205695,-115.9779
0.0191,-92.670715,171.75389,-40.475967,106.83224,-0.4190506,-116.32001
0.0192,-81.415794,-64.274933,-40.501038,106.75278,-0.39702895,-116.55772
0.0193,-91.075226,-10.169716,-40.428452,106.40388,-0.50917655,-116.54849
0.0194,-92.201027,15.269209,-40.410156,106.10239,-0.52516246,-115.89689
0.0195,-86.830551,38.986305,-40.415218,106.93186,-0.52219945,-116.50168
0.0196,-91.147697,177.68333,-40.371525,106.08696,-0.5279336,-115.91838
0.0197,-95.844292,-23.116833,-40.417812,106.74641,-0.46887887,-116.52485
0.0198,-83.549362,-73.845581,-40.477928,107.09541,-0.5092805,-116.725
0.0199,-82.878685,-108.59259,-40.373398,106.38304,-0.50052673,-116.28191
0.02,-86.156624,-47.678844,-40.468346,106.89695,-0.46989781,-117.00279
0.0201,-83.612984,-155.9632,-40.501186,106.54877,-0.30471846,-116.38374
END

